T2EC0 762:164 SEGGER J-Link V6.30h Log File (0001ms, 3801ms total)
T2EC0 762:164 DLL Compiled: Mar 16 2018 18:02:51 (0001ms, 3801ms total)
T2EC0 762:164 Logging started @ 2023-04-03 21:58 (0001ms, 3801ms total)
T2EC0 762:165 JLINK_SetWarnOutHandler(...) (0000ms, 3801ms total)
T2EC0 762:165 JLINK_OpenEx(...)
Firmware: J-Link V9 compiled May  7 2021 16:26:12
Hardware: V9.70
S/N: 59701273
Feature(s): RDI, GDB, FlashDL, FlashBP, JFlash
TELNET listener socket opened on port 19021Device "CORTEX-M7" selected.WEBSRV 
Starting webserver (0104ms, 3905ms total)
T2EC0 762:165 WEBSRV Webserver running on local port 19080 (0105ms, 3906ms total)
T2EC0 762:165   returns O.K. (0105ms, 3906ms total)
T2EC0 762:270 JLINK_GetEmuCaps()  returns 0xB9FF7BBF (0000ms, 3906ms total)
T2EC0 762:270 JLINK_TIF_GetAvailable(...) (0000ms, 3906ms total)
T2EC0 762:270 JLINK_SetErrorOutHandler(...) (0000ms, 3906ms total)
T2EC0 762:270 JLINK_ExecCommand("ProjectFile = "E:\CubeMX\PRJ\STM32H7xx\Hexapod\MDK-ARM\JLinkSettings.ini"", ...). Device "CORTEX-M7" selected.  returns 0x00 (0003ms, 3909ms total)
T2EC0 762:279 JLINK_ExecCommand("Device = STM32H750VBTx", ...). Device "CORTEX-M7" selected.  returns 0x00 (0004ms, 3913ms total)
T2EC0 762:283 JLINK_ExecCommand("DisableConnectionTimeout", ...).   returns 0x01 (0000ms, 3913ms total)
T2EC0 762:283 JLINK_GetHardwareVersion()  returns 0x17AE8 (0000ms, 3913ms total)
T2EC0 762:283 JLINK_GetDLLVersion()  returns 63008 (0000ms, 3913ms total)
T2EC0 762:283 JLINK_GetFirmwareString(...) (0000ms, 3913ms total)
T2EC0 762:295 JLINK_GetDLLVersion()  returns 63008 (0000ms, 3913ms total)
T2EC0 762:295 JLINK_GetCompileDateTime() (0000ms, 3913ms total)
T2EC0 762:299 JLINK_GetFirmwareString(...) (0000ms, 3913ms total)
T2EC0 762:303 JLINK_GetHardwareVersion()  returns 0x17AE8 (0000ms, 3913ms total)
T2EC0 762:324 JLINK_TIF_Select(JLINKARM_TIF_SWD)  returns 0x00 (0001ms, 3914ms total)
T2EC0 762:325 JLINK_SetSpeed(5000) (0000ms, 3914ms total)
T2EC0 762:325 JLINK_GetId() >0x10B TIF>Found SW-DP with ID 0x6BA02477 >0x0D TIF> >0x28 TIF> >0x0D TIF> >0x28 TIF> >0x0D TIF> >0x28 TIF> >0x0D TIF> >0x28 TIF> >0x0D TIF> >0x21 TIF> >0x0D TIF> >0x28 TIF>Scanning AP map to find all available APs >0x0D TIF> >0x28 TIF> >0x0D TIF> >0x21 TIF> >0x0D TIF> >0x21 TIF> >0x0D TIF> >0x28 TIF> >0x0D TIF> >0x21 TIF> >0x0D TIF> >0x21 TIF> >0x0D TIF> >0x28 TIF> >0x0D TIF> >0x21 TIF> >0x0D TIF> >0x21 TIF> >0x0D TIF> >0x28 TIF> >0x0D TIF> >0x21 TIF> >0x0D TIF> >0x21 TIF>
AP[3]: Stopped AP scan as end of AP map has been reachedAP[0]: AHB-AP (IDR: 0x84770001)AP[1]: AHB-AP (IDR: 0x84770001)AP[2]: APB-AP (IDR: 0x54770002)Iterating through AP map to find AHB-AP to use >0x42 TIF> >0x28 TIF> >0x0D TIF> >0x28 TIF> >0x0D TIF> >0x21 TIF> >0x0D TIF> >0x21 TIF> >0x42 TIF> >0x28 TIF> >0x0D TIF> >0x28 TIF> >0x0D TIF> >0x28 TIF> >0x0D TIF> >0x21 TIF> >0x0D TIF> >0x21 TIF>AP[0]: Core foundAP[0]: AHB-AP ROM base: 0xE00FE000 >0x0D TIF> >0x28 TIF> >0x0D TIF> >0x28 TIF> >0x0D TIF>
 >0x28 TIF> >0x0D TIF> >0x21 TIF> >0x0D TIF> >0x21 TIF>CPUID register: 0x411FC271. Implementer code: 0x41 (ARM)Found Cortex-M7 r1p1, Little endian. -- CPU_ReadMem(4 bytes @ 0xE000EDF0) -- CPU_WriteMem(4 bytes @ 0xE000EDF0) -- CPU_ReadMem(4 bytes @ 0xE0002000)FPUnit: 8 code (BP) slots and 0 literal slots -- CPU_ReadMem(4 bytes @ 0xE000EDFC) -- CPU_ReadMem(4 bytes @ 0xE0001000) -- CPU_WriteMem(4 bytes @ 0xE0001000) -- CPU_ReadMem(4 bytes @ 0xE000ED88) -- CPU_WriteMem(4 bytes @ 0xE000ED88)
 -- CPU_ReadMem(4 bytes @ 0xE000ED88) -- CPU_WriteMem(4 bytes @ 0xE000ED88)CoreSight components:ROMTbl[0] @ E00FE000 -- CPU_ReadMem(16 bytes @ 0xE00FE000) -- CPU_ReadMem(16 bytes @ 0xE00FFFF0) -- CPU_ReadMem(16 bytes @ 0xE00FFFE0)ROMTbl[0][0]: E00FF000, CID: B105100D, PID: 000BB4C7 ROM TableROMTbl[1] @ E00FF000 -- CPU_ReadMem(16 bytes @ 0xE00FF000) -- CPU_ReadMem(16 bytes @ 0xE000EFF0) -- CPU_ReadMem(16 bytes @ 0xE000EFE0)ROMTbl[1][0]: E000E000, CID: B105E00D, PID: 000BB00C SCS-M7
 -- CPU_ReadMem(16 bytes @ 0xE0001FF0) -- CPU_ReadMem(16 bytes @ 0xE0001FE0)ROMTbl[1][1]: E0001000, CID: B105E00D, PID: 000BB002 DWT -- CPU_ReadMem(16 bytes @ 0xE0002FF0) -- CPU_ReadMem(16 bytes @ 0xE0002FE0)ROMTbl[1][2]: E0002000, CID: B105E00D, PID: 000BB00E FPB-M7 -- CPU_ReadMem(16 bytes @ 0xE0000FF0) -- CPU_ReadMem(16 bytes @ 0xE0000FE0)ROMTbl[1][3]: E0000000, CID: B105E00D, PID: 000BB001 ITM -- CPU_ReadMem(16 bytes @ 0xE00FF010) -- CPU_ReadMem(16 bytes @ 0xE0041FF0)
 -- CPU_ReadMem(16 bytes @ 0xE0041FE0)ROMTbl[0][1]: E0041000, CID: B105900D, PID: 001BB975 ETM-M7 -- CPU_ReadMem(16 bytes @ 0xE0043FF0) -- CPU_ReadMem(16 bytes @ 0xE0043FE0)ROMTbl[0][2]: E0043000, CID: B105900D, PID: 004BB906 CTI -- CPU_ReadMem(16 bytes @ 0xE00FE010) -- CPU_ReadMem(4 bytes @ 0xE000ED78)Cache: Separate I- and D-cache. (0225ms, 4139ms total)
T2EC0 762:325  -- CPU_WriteMem(4 bytes @ 0xE000ED84) -- CPU_ReadMem(4 bytes @ 0xE000ED80)I-Cache L1: 16 KB, 256 Sets, 32 Bytes/Line, 2-Way -- CPU_WriteMem(4 bytes @ 0xE000ED84) -- CPU_ReadMem(4 bytes @ 0xE000ED80)D-Cache L1: 16 KB, 128 Sets, 32 Bytes/Line, 4-Way >0x0D TIF> >0x21 TIF>  returns 0x6BA02477 (0236ms, 4150ms total)
T2EC0 762:561 JLINK_GetDLLVersion()  returns 63008 (0000ms, 4150ms total)
T2EC0 762:561 JLINK_CORE_GetFound()  returns 0xE0100FF (0000ms, 4150ms total)
T2EC0 762:561 JLINK_GetDebugInfo(0x100 = JLINKARM_ROM_TABLE_ADDR_INDEX) -- Value=0xE00FE000  returns 0x00 (0001ms, 4151ms total)
T2EC0 762:566 JLINK_GetDebugInfo(0x100 = JLINKARM_ROM_TABLE_ADDR_INDEX) -- Value=0xE00FE000  returns 0x00 (0000ms, 4151ms total)
T2EC0 762:566 JLINK_GetDebugInfo(0x101 = JLINKARM_DEBUG_INFO_ETM_ADDR_INDEX) -- Value=0xE0041000  returns 0x00 (0000ms, 4151ms total)
T2EC0 762:566 JLINK_ReadMemEx(0xE0041FD0, 0x0020 Bytes, ..., Flags = 0x02000004) -- CPU_ReadMem(32 bytes @ 0xE0041FD0) - Data: 04 00 00 00 00 00 00 00 00 00 00 00 00 00 00 00 ...  returns 0x20 (0001ms, 4152ms total)
T2EC0 762:567 JLINK_GetDebugInfo(0x102 = JLINKARM_DEBUG_INFO_MTB_ADDR_INDEX) -- Value=0x00000000  returns 0x00 (0000ms, 4152ms total)
T2EC0 762:567 JLINK_GetDebugInfo(0x103 = JLINKARM_DEBUG_INFO_TPIU_ADDR_INDEX) -- Value=0x00000000  returns 0x00 (0000ms, 4152ms total)
T2EC0 762:567 JLINK_ReadMemEx(0xE0040FF0, 0x0010 Bytes, ..., Flags = 0x02000004) -- CPU_ReadMem(16 bytes @ 0xE0040FF0) - Data: 00 00 00 00 00 00 00 00 00 00 00 00 00 00 00 00  returns 0x10 (0000ms, 4152ms total)
T2EC0 762:567 JLINK_GetDebugInfo(0x104 = JLINKARM_DEBUG_INFO_ITM_ADDR_INDEX) -- Value=0xE0000000  returns 0x00 (0000ms, 4152ms total)
T2EC0 762:567 JLINK_GetDebugInfo(0x105 = JLINKARM_DEBUG_INFO_DWT_ADDR_INDEX) -- Value=0xE0001000  returns 0x00 (0000ms, 4152ms total)
T2EC0 762:567 JLINK_GetDebugInfo(0x106 = JLINKARM_DEBUG_INFO_FPB_ADDR_INDEX) -- Value=0xE0002000  returns 0x00 (0000ms, 4152ms total)
T2EC0 762:567 JLINK_GetDebugInfo(0x107 = JLINKARM_DEBUG_INFO_NVIC_ADDR_INDEX) -- Value=0xE000E000  returns 0x00 (0000ms, 4152ms total)
T2EC0 762:567 JLINK_GetDebugInfo(0x10C = JLINKARM_DEBUG_INFO_DBG_ADDR_INDEX) -- Value=0xE000EDF0  returns 0x00 (0000ms, 4152ms total)
T2EC0 762:567 JLINK_GetDebugInfo(0x01 = Unknown) -- Value=0x00000001  returns 0x00 (0000ms, 4152ms total)
T2EC0 762:567 JLINK_ReadMemU32(0xE000ED00, 0x0001 Items, ...) -- CPU_ReadMem(4 bytes @ 0xE000ED00) - Data: 71 C2 1F 41  returns 0x01 (0000ms, 4152ms total)
T2EC0 762:567 JLINK_GetDebugInfo(0x10F = JLINKARM_DEBUG_INFO_HAS_CORTEX_M_SECURITY_EXT_INDEX) -- Value=0x00000000  returns 0x00 (0000ms, 4152ms total)
T2EC0 762:567 JLINK_SetResetType(JLINKARM_CM3_RESET_TYPE_NORMAL)  returns JLINKARM_CM3_RESET_TYPE_NORMAL (0001ms, 4153ms total)
T2EC0 762:568 JLINK_Reset() -- CPU is running -- CPU_WriteMem(4 bytes @ 0xE000EDF0) -- CPU is running -- CPU_WriteMem(4 bytes @ 0xE000EDFC)Reset: Halt core after reset via DEMCR.VC_CORERESET. >0x35 TIF>Reset: Reset device via AIRCR.SYSRESETREQ. -- CPU is running -- CPU_WriteMem(4 bytes @ 0xE000ED0C) >0x0D TIF> >0x28 TIF> -- CPU_ReadMem(4 bytes @ 0xE000EDF0) -- CPU_ReadMem(4 bytes @ 0xE000EDF0) -- CPU is running -- CPU_WriteMem(4 bytes @ 0xE000EDF0) -- CPU is running -- CPU_WriteMem(4 bytes @ 0xE000EDFC)
 -- CPU_ReadMem(4 bytes @ 0xE000EDF0) -- CPU_WriteMem(4 bytes @ 0xE0002000) -- CPU_ReadMem(4 bytes @ 0xE000EDFC) -- CPU_ReadMem(4 bytes @ 0xE0001000) (0073ms, 4226ms total)
T2EC0 762:641 JLINK_Halt()  returns 0x00 (0001ms, 4227ms total)
T2EC0 762:642 JLINK_ReadMemU32(0xE000EDF0, 0x0001 Items, ...) -- CPU_ReadMem(4 bytes @ 0xE000EDF0) - Data: 03 00 03 00  returns 0x01 (0000ms, 4227ms total)
T2EC0 762:642 JLINK_WriteU32(0xE000EDF0, 0xA05F0003) -- CPU_WriteMem(4 bytes @ 0xE000EDF0)  returns 0x00 (0000ms, 4227ms total)
T2EC0 762:642 JLINK_WriteU32(0xE000EDFC, 0x01000000) -- CPU_WriteMem(4 bytes @ 0xE000EDFC)  returns 0x00 (0001ms, 4228ms total)
T2EC0 762:659 JLINK_GetHWStatus(...)  returns 0x00 (0000ms, 4228ms total)
T2EC0 762:674 JLINK_GetNumBPUnits(Type = 0xFFFFFF00)  returns 0x08 (0000ms, 4228ms total)
T2EC0 762:674 JLINK_GetNumBPUnits(Type = 0xF0)  returns 0x2000 (0000ms, 4228ms total)
T2EC0 762:674 JLINK_GetNumWPUnits()  returns 0x04 (0000ms, 4228ms total)
T2EC0 762:690 JLINK_GetSpeed()  returns 0xFA0 (0000ms, 4228ms total)
T2EC0 762:702 JLINK_ReadMemU32(0xE000E004, 0x0001 Items, ...) -- CPU_ReadMem(4 bytes @ 0xE000E004) - Data: 04 00 00 00  returns 0x01 (0000ms, 4228ms total)
T2EC0 762:702 JLINK_ReadMemU32(0xE000E004, 0x0001 Items, ...) -- CPU_ReadMem(4 bytes @ 0xE000E004) - Data: 04 00 00 00  returns 0x01 (0000ms, 4228ms total)
T2EC0 762:702 JLINK_WriteMemEx(0xE0001000, 0x001C Bytes, ..., Flags = 0x02000004) - Data: 01 00 00 00 00 00 00 00 00 00 00 00 00 00 00 00 ... -- CPU_WriteMem(28 bytes @ 0xE0001000)  returns 0x1C (0001ms, 4229ms total)
T2EC0 762:703 JLINK_Halt()  returns 0x00 (0000ms, 4229ms total)
T2EC0 762:703 JLINK_IsHalted()  returns TRUE (0000ms, 4229ms total)
T2EC0 762:707 JLINK_WriteMem(0x24000000, 0x0BA8 Bytes, ...) - Data: 00 BE 0A E0 0D 78 2D 06 68 40 08 24 40 00 00 D3 ... -- CPU_WriteMem(2984 bytes @ 0x24000000)  returns 0xBA8 (0009ms, 4238ms total)
T2EC0 762:716 JLINK_WriteReg(R0, 0x90000000)  returns 0x00 (0000ms, 4238ms total)
T2EC0 762:716 JLINK_WriteReg(R1, 0x017D7840)  returns 0x00 (0000ms, 4238ms total)
T2EC0 762:716 JLINK_WriteReg(R2, 0x00000001)  returns 0x00 (0000ms, 4238ms total)
T2EC0 762:716 JLINK_WriteReg(R3, 0x00000000)  returns 0x00 (0000ms, 4238ms total)
T2EC0 762:716 JLINK_WriteReg(R4, 0x00000000)  returns 0x00 (0000ms, 4238ms total)
T2EC0 762:716 JLINK_WriteReg(R5, 0x00000000)  returns 0x00 (0000ms, 4238ms total)
T2EC0 762:716 JLINK_WriteReg(R6, 0x00000000)  returns 0x00 (0000ms, 4238ms total)
T2EC0 762:716 JLINK_WriteReg(R7, 0x00000000)  returns 0x00 (0000ms, 4238ms total)
T2EC0 762:716 JLINK_WriteReg(R8, 0x00000000)  returns 0x00 (0000ms, 4238ms total)
T2EC0 762:716 JLINK_WriteReg(R9, 0x24000B98)  returns 0x00 (0001ms, 4239ms total)
T2EC0 762:717 JLINK_WriteReg(R10, 0x00000000)  returns 0x00 (0000ms, 4239ms total)
T2EC0 762:717 JLINK_WriteReg(R11, 0x00000000)  returns 0x00 (0000ms, 4239ms total)
T2EC0 762:717 JLINK_WriteReg(R12, 0x00000000)  returns 0x00 (0000ms, 4239ms total)
T2EC0 762:717 JLINK_WriteReg(R13 (SP), 0x24008000)  returns 0x00 (0000ms, 4239ms total)
T2EC0 762:717 JLINK_WriteReg(R14, 0x24000001)  returns 0x00 (0000ms, 4239ms total)
T2EC0 762:717 JLINK_WriteReg(R15 (PC), 0x24000068)  returns 0x00 (0000ms, 4239ms total)
T2EC0 762:717 JLINK_WriteReg(XPSR, 0x01000000)  returns 0x00 (0000ms, 4239ms total)
T2EC0 762:717 JLINK_WriteReg(MSP, 0x24008000)  returns 0x00 (0000ms, 4239ms total)
T2EC0 762:717 JLINK_WriteReg(PSP, 0x24008000)  returns 0x00 (0000ms, 4239ms total)
T2EC0 762:717 JLINK_WriteReg(CFBP, 0x00000000)  returns 0x00 (0000ms, 4239ms total)
T2EC0 762:717 JLINK_SetBPEx(Addr = 0x24000000, Type = 0xFFFFFFF2)  returns 0x00000001 (0000ms, 4239ms total)
T2EC0 762:717 JLINK_Go() -- CPU_WriteMem(4 bytes @ 0xE0002000) -- CPU_ReadMem(4 bytes @ 0xE0001000) -- CPU_WriteMem(4 bytes @ 0xE0002008) -- CPU_WriteMem(4 bytes @ 0xE000200C) -- CPU_WriteMem(4 bytes @ 0xE0002010) -- CPU_WriteMem(4 bytes @ 0xE0002014) -- CPU_WriteMem(4 bytes @ 0xE0002018) -- CPU_WriteMem(4 bytes @ 0xE000201C) -- CPU_WriteMem(4 bytes @ 0xE0002020) -- CPU_WriteMem(4 bytes @ 0xE0002024) -- CPU_WriteMem(4 bytes @ 0xE0001004) (0003ms, 4242ms total)
T2EC0 762:720 JLINK_IsHalted()  returns FALSE (0000ms, 4242ms total)
T2EC0 763:020 JLINK_IsHalted()  returns TRUE (0002ms, 4244ms total)
T2EC0 763:022 JLINK_ReadReg(R15 (PC))  returns 0x24000000 (0000ms, 4242ms total)
T2EC0 763:022 JLINK_ClrBPEx(BPHandle = 0x00000001)  returns 0x00 (0000ms, 4242ms total)
T2EC0 763:022 JLINK_ReadReg(R0)  returns 0x00000000 (0000ms, 4242ms total)
T2EC0 763:022 JLINK_WriteReg(R0, 0x90000000)  returns 0x00 (0000ms, 4242ms total)
T2EC0 763:022 JLINK_WriteReg(R1, 0x00001000)  returns 0x00 (0000ms, 4242ms total)
T2EC0 763:022 JLINK_WriteReg(R2, 0x000000FF)  returns 0x00 (0000ms, 4242ms total)
T2EC0 763:022 JLINK_WriteReg(R3, 0x00000000)  returns 0x00 (0000ms, 4242ms total)
T2EC0 763:022 JLINK_WriteReg(R4, 0x00000000)  returns 0x00 (0000ms, 4242ms total)
T2EC0 763:022 JLINK_WriteReg(R5, 0x00000000)  returns 0x00 (0000ms, 4242ms total)
T2EC0 763:022 JLINK_WriteReg(R6, 0x00000000)  returns 0x00 (0000ms, 4242ms total)
T2EC0 763:022 JLINK_WriteReg(R7, 0x00000000)  returns 0x00 (0000ms, 4242ms total)
T2EC0 763:022 JLINK_WriteReg(R8, 0x00000000)  returns 0x00 (0000ms, 4242ms total)
T2EC0 763:022 JLINK_WriteReg(R9, 0x24000B98)  returns 0x00 (0000ms, 4242ms total)
T2EC0 763:022 JLINK_WriteReg(R10, 0x00000000)  returns 0x00 (0000ms, 4242ms total)
T2EC0 763:022 JLINK_WriteReg(R11, 0x00000000)  returns 0x00 (0000ms, 4242ms total)
T2EC0 763:022 JLINK_WriteReg(R12, 0x00000000)  returns 0x00 (0000ms, 4242ms total)
T2EC0 763:022 JLINK_WriteReg(R13 (SP), 0x24008000)  returns 0x00 (0000ms, 4242ms total)
T2EC0 763:022 JLINK_WriteReg(R14, 0x24000001)  returns 0x00 (0000ms, 4242ms total)
T2EC0 763:022 JLINK_WriteReg(R15 (PC), 0x240000A6)  returns 0x00 (0000ms, 4242ms total)
T2EC0 763:022 JLINK_WriteReg(XPSR, 0x01000000)  returns 0x00 (0000ms, 4242ms total)
T2EC0 763:022 JLINK_WriteReg(MSP, 0x24008000)  returns 0x00 (0000ms, 4242ms total)
T2EC0 763:022 JLINK_WriteReg(PSP, 0x24008000)  returns 0x00 (0000ms, 4242ms total)
T2EC0 763:022 JLINK_WriteReg(CFBP, 0x00000000)  returns 0x00 (0000ms, 4242ms total)
T2EC0 763:022 JLINK_SetBPEx(Addr = 0x24000000, Type = 0xFFFFFFF2)  returns 0x00000002 (0000ms, 4242ms total)
T2EC0 763:022 JLINK_Go() -- CPU_WriteMem(4 bytes @ 0xE0002000) -- CPU_ReadMem(4 bytes @ 0xE0001000) (0003ms, 4245ms total)
T2EC0 763:025 JLINK_IsHalted()  returns TRUE (0002ms, 4247ms total)
T2EC0 763:027 JLINK_ReadReg(R15 (PC))  returns 0x24000000 (0000ms, 4245ms total)
T2EC0 763:027 JLINK_ClrBPEx(BPHandle = 0x00000002)  returns 0x00 (0000ms, 4245ms total)
T2EC0 763:027 JLINK_ReadReg(R0)  returns 0x00000001 (0000ms, 4245ms total)
T2EC0 763:027 JLINK_WriteReg(R0, 0x90000000)  returns 0x00 (0000ms, 4245ms total)
T2EC0 763:027 JLINK_WriteReg(R1, 0x00001000)  returns 0x00 (0000ms, 4245ms total)
T2EC0 763:027 JLINK_WriteReg(R2, 0x000000FF)  returns 0x00 (0000ms, 4245ms total)
T2EC0 763:027 JLINK_WriteReg(R3, 0x00000000)  returns 0x00 (0000ms, 4245ms total)
T2EC0 763:027 JLINK_WriteReg(R4, 0x00000000)  returns 0x00 (0000ms, 4245ms total)
T2EC0 763:027 JLINK_WriteReg(R5, 0x00000000)  returns 0x00 (0000ms, 4245ms total)
T2EC0 763:027 JLINK_WriteReg(R6, 0x00000000)  returns 0x00 (0000ms, 4245ms total)
T2EC0 763:027 JLINK_WriteReg(R7, 0x00000000)  returns 0x00 (0000ms, 4245ms total)
T2EC0 763:027 JLINK_WriteReg(R8, 0x00000000)  returns 0x00 (0000ms, 4245ms total)
T2EC0 763:027 JLINK_WriteReg(R9, 0x24000B98)  returns 0x00 (0000ms, 4245ms total)
T2EC0 763:027 JLINK_WriteReg(R10, 0x00000000)  returns 0x00 (0000ms, 4245ms total)
T2EC0 763:027 JLINK_WriteReg(R11, 0x00000000)  returns 0x00 (0000ms, 4245ms total)
T2EC0 763:027 JLINK_WriteReg(R12, 0x00000000)  returns 0x00 (0000ms, 4245ms total)
T2EC0 763:027 JLINK_WriteReg(R13 (SP), 0x24008000)  returns 0x00 (0000ms, 4245ms total)
T2EC0 763:027 JLINK_WriteReg(R14, 0x24000001)  returns 0x00 (0000ms, 4245ms total)
T2EC0 763:027 JLINK_WriteReg(R15 (PC), 0x24000094)  returns 0x00 (0000ms, 4245ms total)
T2EC0 763:027 JLINK_WriteReg(XPSR, 0x01000000)  returns 0x00 (0000ms, 4245ms total)
T2EC0 763:027 JLINK_WriteReg(MSP, 0x24008000)  returns 0x00 (0000ms, 4245ms total)
T2EC0 763:027 JLINK_WriteReg(PSP, 0x24008000)  returns 0x00 (0000ms, 4245ms total)
T2EC0 763:027 JLINK_WriteReg(CFBP, 0x00000000)  returns 0x00 (0000ms, 4245ms total)
T2EC0 763:027 JLINK_SetBPEx(Addr = 0x24000000, Type = 0xFFFFFFF2)  returns 0x00000003 (0000ms, 4245ms total)
T2EC0 763:027 JLINK_Go() -- CPU_WriteMem(4 bytes @ 0xE0002000) -- CPU_ReadMem(4 bytes @ 0xE0001000) (0002ms, 4247ms total)
T2EC0 763:029 JLINK_IsHalted()  returns FALSE (0000ms, 4247ms total)
T2EC0 763:034 JLINK_IsHalted()  returns FALSE (0000ms, 4247ms total)
T2EC0 763:036 JLINK_IsHalted()  returns FALSE (0000ms, 4247ms total)
T2EC0 763:038 JLINK_IsHalted()  returns FALSE (0000ms, 4247ms total)
T2EC0 763:040 JLINK_IsHalted()  returns FALSE (0000ms, 4247ms total)
T2EC0 763:042 JLINK_IsHalted()  returns FALSE (0000ms, 4247ms total)
T2EC0 763:044 JLINK_IsHalted()  returns FALSE (0000ms, 4247ms total)
T2EC0 763:046 JLINK_IsHalted()  returns FALSE (0000ms, 4247ms total)
T2EC0 763:048 JLINK_IsHalted()  returns FALSE (0000ms, 4247ms total)
T2EC0 763:050 JLINK_IsHalted()  returns FALSE (0000ms, 4247ms total)
T2EC0 763:052 JLINK_IsHalted()  returns FALSE (0000ms, 4247ms total)
T2EC0 763:054 JLINK_IsHalted()  returns FALSE (0000ms, 4247ms total)
T2EC0 763:056 JLINK_IsHalted()  returns FALSE (0000ms, 4247ms total)
T2EC0 763:058 JLINK_IsHalted()  returns FALSE (0000ms, 4247ms total)
T2EC0 763:060 JLINK_IsHalted()  returns FALSE (0000ms, 4247ms total)
T2EC0 763:065 JLINK_IsHalted()  returns FALSE (0000ms, 4247ms total)
T2EC0 763:067 JLINK_IsHalted()  returns FALSE (0000ms, 4247ms total)
T2EC0 763:069 JLINK_IsHalted()  returns FALSE (0000ms, 4247ms total)
T2EC0 763:071 JLINK_IsHalted()  returns FALSE (0000ms, 4247ms total)
T2EC0 763:073 JLINK_IsHalted()  returns FALSE (0000ms, 4247ms total)
T2EC0 763:074 JLINK_IsHalted()  returns FALSE (0001ms, 4248ms total)
T2EC0 763:076 JLINK_IsHalted()  returns FALSE (0000ms, 4247ms total)
T2EC0 763:078 JLINK_IsHalted()  returns FALSE (0000ms, 4247ms total)
T2EC0 763:080 JLINK_IsHalted()  returns FALSE (0000ms, 4247ms total)
T2EC0 763:082 JLINK_IsHalted()  returns FALSE (0000ms, 4247ms total)
T2EC0 763:084 JLINK_IsHalted()  returns FALSE (0000ms, 4247ms total)
T2EC0 763:086 JLINK_IsHalted()  returns FALSE (0000ms, 4247ms total)
T2EC0 763:088 JLINK_IsHalted()  returns FALSE (0000ms, 4247ms total)
T2EC0 763:090 JLINK_IsHalted()  returns FALSE (0000ms, 4247ms total)
T2EC0 763:101 JLINK_IsHalted()  returns TRUE (0001ms, 4248ms total)
T2EC0 763:102 JLINK_ReadReg(R15 (PC))  returns 0x24000000 (0000ms, 4247ms total)
T2EC0 763:102 JLINK_ClrBPEx(BPHandle = 0x00000003)  returns 0x00 (0000ms, 4247ms total)
T2EC0 763:102 JLINK_ReadReg(R0)  returns 0x00000000 (0000ms, 4247ms total)
T2EC0 763:103 JLINK_WriteReg(R0, 0x90001000)  returns 0x00 (0000ms, 4247ms total)
T2EC0 763:103 JLINK_WriteReg(R1, 0x00001000)  returns 0x00 (0000ms, 4247ms total)
T2EC0 763:103 JLINK_WriteReg(R2, 0x000000FF)  returns 0x00 (0000ms, 4247ms total)
T2EC0 763:103 JLINK_WriteReg(R3, 0x00000000)  returns 0x00 (0000ms, 4247ms total)
T2EC0 763:103 JLINK_WriteReg(R4, 0x00000000)  returns 0x00 (0000ms, 4247ms total)
T2EC0 763:103 JLINK_WriteReg(R5, 0x00000000)  returns 0x00 (0000ms, 4247ms total)
T2EC0 763:103 JLINK_WriteReg(R6, 0x00000000)  returns 0x00 (0000ms, 4247ms total)
T2EC0 763:103 JLINK_WriteReg(R7, 0x00000000)  returns 0x00 (0000ms, 4247ms total)
T2EC0 763:103 JLINK_WriteReg(R8, 0x00000000)  returns 0x00 (0000ms, 4247ms total)
T2EC0 763:103 JLINK_WriteReg(R9, 0x24000B98)  returns 0x00 (0000ms, 4247ms total)
T2EC0 763:103 JLINK_WriteReg(R10, 0x00000000)  returns 0x00 (0000ms, 4247ms total)
T2EC0 763:103 JLINK_WriteReg(R11, 0x00000000)  returns 0x00 (0000ms, 4247ms total)
T2EC0 763:103 JLINK_WriteReg(R12, 0x00000000)  returns 0x00 (0000ms, 4247ms total)
T2EC0 763:103 JLINK_WriteReg(R13 (SP), 0x24008000)  returns 0x00 (0000ms, 4247ms total)
T2EC0 763:103 JLINK_WriteReg(R14, 0x24000001)  returns 0x00 (0000ms, 4247ms total)
T2EC0 763:103 JLINK_WriteReg(R15 (PC), 0x240000A6)  returns 0x00 (0000ms, 4247ms total)
T2EC0 763:103 JLINK_WriteReg(XPSR, 0x01000000)  returns 0x00 (0000ms, 4247ms total)
T2EC0 763:103 JLINK_WriteReg(MSP, 0x24008000)  returns 0x00 (0000ms, 4247ms total)
T2EC0 763:103 JLINK_WriteReg(PSP, 0x24008000)  returns 0x00 (0000ms, 4247ms total)
T2EC0 763:103 JLINK_WriteReg(CFBP, 0x00000000)  returns 0x00 (0000ms, 4247ms total)
T2EC0 763:103 JLINK_SetBPEx(Addr = 0x24000000, Type = 0xFFFFFFF2)  returns 0x00000004 (0000ms, 4247ms total)
T2EC0 763:103 JLINK_Go() -- CPU_WriteMem(4 bytes @ 0xE0002000) -- CPU_ReadMem(4 bytes @ 0xE0001000) (0003ms, 4250ms total)
T2EC0 763:106 JLINK_IsHalted()  returns TRUE (0001ms, 4251ms total)
T2EC0 763:107 JLINK_ReadReg(R15 (PC))  returns 0x24000000 (0000ms, 4250ms total)
T2EC0 763:107 JLINK_ClrBPEx(BPHandle = 0x00000004)  returns 0x00 (0000ms, 4250ms total)
T2EC0 763:107 JLINK_ReadReg(R0)  returns 0x00000001 (0000ms, 4250ms total)
T2EC0 763:107 JLINK_WriteReg(R0, 0x90001000)  returns 0x00 (0000ms, 4250ms total)
T2EC0 763:107 JLINK_WriteReg(R1, 0x00001000)  returns 0x00 (0000ms, 4250ms total)
T2EC0 763:107 JLINK_WriteReg(R2, 0x000000FF)  returns 0x00 (0000ms, 4250ms total)
T2EC0 763:107 JLINK_WriteReg(R3, 0x00000000)  returns 0x00 (0000ms, 4250ms total)
T2EC0 763:107 JLINK_WriteReg(R4, 0x00000000)  returns 0x00 (0000ms, 4250ms total)
T2EC0 763:107 JLINK_WriteReg(R5, 0x00000000)  returns 0x00 (0000ms, 4250ms total)
T2EC0 763:107 JLINK_WriteReg(R6, 0x00000000)  returns 0x00 (0000ms, 4250ms total)
T2EC0 763:107 JLINK_WriteReg(R7, 0x00000000)  returns 0x00 (0000ms, 4250ms total)
T2EC0 763:107 JLINK_WriteReg(R8, 0x00000000)  returns 0x00 (0000ms, 4250ms total)
T2EC0 763:107 JLINK_WriteReg(R9, 0x24000B98)  returns 0x00 (0000ms, 4250ms total)
T2EC0 763:107 JLINK_WriteReg(R10, 0x00000000)  returns 0x00 (0000ms, 4250ms total)
T2EC0 763:107 JLINK_WriteReg(R11, 0x00000000)  returns 0x00 (0000ms, 4250ms total)
T2EC0 763:107 JLINK_WriteReg(R12, 0x00000000)  returns 0x00 (0000ms, 4250ms total)
T2EC0 763:107 JLINK_WriteReg(R13 (SP), 0x24008000)  returns 0x00 (0000ms, 4250ms total)
T2EC0 763:107 JLINK_WriteReg(R14, 0x24000001)  returns 0x00 (0000ms, 4250ms total)
T2EC0 763:107 JLINK_WriteReg(R15 (PC), 0x24000094)  returns 0x00 (0000ms, 4250ms total)
T2EC0 763:107 JLINK_WriteReg(XPSR, 0x01000000)  returns 0x00 (0000ms, 4250ms total)
T2EC0 763:107 JLINK_WriteReg(MSP, 0x24008000)  returns 0x00 (0000ms, 4250ms total)
T2EC0 763:107 JLINK_WriteReg(PSP, 0x24008000)  returns 0x00 (0000ms, 4250ms total)
T2EC0 763:107 JLINK_WriteReg(CFBP, 0x00000000)  returns 0x00 (0000ms, 4250ms total)
T2EC0 763:107 JLINK_SetBPEx(Addr = 0x24000000, Type = 0xFFFFFFF2)  returns 0x00000005 (0000ms, 4250ms total)
T2EC0 763:107 JLINK_Go() -- CPU_WriteMem(4 bytes @ 0xE0002000) -- CPU_ReadMem(4 bytes @ 0xE0001000) (0002ms, 4252ms total)
T2EC0 763:109 JLINK_IsHalted()  returns FALSE (0000ms, 4252ms total)
T2EC0 763:111 JLINK_IsHalted()  returns FALSE (0000ms, 4252ms total)
T2EC0 763:113 JLINK_IsHalted()  returns FALSE (0000ms, 4252ms total)
T2EC0 763:115 JLINK_IsHalted()  returns FALSE (0000ms, 4252ms total)
T2EC0 763:117 JLINK_IsHalted()  returns FALSE (0000ms, 4252ms total)
T2EC0 763:119 JLINK_IsHalted()  returns FALSE (0000ms, 4252ms total)
T2EC0 763:123 JLINK_IsHalted()  returns FALSE (0000ms, 4252ms total)
T2EC0 763:125 JLINK_IsHalted()  returns FALSE (0000ms, 4252ms total)
T2EC0 763:127 JLINK_IsHalted()  returns FALSE (0000ms, 4252ms total)
T2EC0 763:129 JLINK_IsHalted()  returns FALSE (0000ms, 4252ms total)
T2EC0 763:130 JLINK_IsHalted()  returns FALSE (0000ms, 4252ms total)
T2EC0 763:132 JLINK_IsHalted()  returns FALSE (0000ms, 4252ms total)
T2EC0 763:134 JLINK_IsHalted()  returns FALSE (0000ms, 4252ms total)
T2EC0 763:139 JLINK_IsHalted()  returns FALSE (0000ms, 4252ms total)
T2EC0 763:141 JLINK_IsHalted()  returns FALSE (0000ms, 4252ms total)
T2EC0 763:143 JLINK_IsHalted()  returns FALSE (0000ms, 4252ms total)
T2EC0 763:145 JLINK_IsHalted()  returns FALSE (0000ms, 4252ms total)
T2EC0 763:147 JLINK_IsHalted()  returns FALSE (0000ms, 4252ms total)
T2EC0 763:149 JLINK_IsHalted()  returns FALSE (0000ms, 4252ms total)
T2EC0 763:150 JLINK_IsHalted()  returns FALSE (0000ms, 4252ms total)
T2EC0 763:152 JLINK_IsHalted()  returns FALSE (0000ms, 4252ms total)
T2EC0 763:154 JLINK_IsHalted()  returns FALSE (0000ms, 4252ms total)
T2EC0 763:156 JLINK_IsHalted()  returns FALSE (0000ms, 4252ms total)
T2EC0 763:158 JLINK_IsHalted()  returns FALSE (0000ms, 4252ms total)
T2EC0 763:159 JLINK_IsHalted()  returns FALSE (0000ms, 4252ms total)
T2EC0 763:161 JLINK_IsHalted()  returns FALSE (0000ms, 4252ms total)
T2EC0 763:162 JLINK_IsHalted()  returns FALSE (0000ms, 4252ms total)
T2EC0 763:164 JLINK_IsHalted()  returns FALSE (0000ms, 4252ms total)
T2EC0 763:166 JLINK_IsHalted()  returns FALSE (0000ms, 4252ms total)
T2EC0 763:167 JLINK_IsHalted()  returns FALSE (0000ms, 4252ms total)
T2EC0 763:169 JLINK_IsHalted()  returns FALSE (0000ms, 4252ms total)
T2EC0 763:171 JLINK_IsHalted()  returns FALSE (0000ms, 4252ms total)
T2EC0 763:173 JLINK_IsHalted()  returns FALSE (0000ms, 4252ms total)
T2EC0 763:175 JLINK_IsHalted()  returns FALSE (0000ms, 4252ms total)
T2EC0 763:177 JLINK_IsHalted()  returns FALSE (0000ms, 4252ms total)
T2EC0 763:179 JLINK_IsHalted()  returns FALSE (0000ms, 4252ms total)
T2EC0 763:181 JLINK_IsHalted()  returns TRUE (0001ms, 4253ms total)
T2EC0 763:182 JLINK_ReadReg(R15 (PC))  returns 0x24000000 (0000ms, 4252ms total)
T2EC0 763:182 JLINK_ClrBPEx(BPHandle = 0x00000005)  returns 0x00 (0000ms, 4252ms total)
T2EC0 763:182 JLINK_ReadReg(R0)  returns 0x00000000 (0000ms, 4252ms total)
T2EC0 763:183 JLINK_WriteReg(R0, 0x90002000)  returns 0x00 (0000ms, 4252ms total)
T2EC0 763:183 JLINK_WriteReg(R1, 0x00001000)  returns 0x00 (0000ms, 4252ms total)
T2EC0 763:183 JLINK_WriteReg(R2, 0x000000FF)  returns 0x00 (0000ms, 4252ms total)
T2EC0 763:183 JLINK_WriteReg(R3, 0x00000000)  returns 0x00 (0000ms, 4252ms total)
T2EC0 763:183 JLINK_WriteReg(R4, 0x00000000)  returns 0x00 (0000ms, 4252ms total)
T2EC0 763:183 JLINK_WriteReg(R5, 0x00000000)  returns 0x00 (0000ms, 4252ms total)
T2EC0 763:183 JLINK_WriteReg(R6, 0x00000000)  returns 0x00 (0000ms, 4252ms total)
T2EC0 763:183 JLINK_WriteReg(R7, 0x00000000)  returns 0x00 (0000ms, 4252ms total)
T2EC0 763:184 JLINK_WriteReg(R8, 0x00000000)  returns 0x00 (0000ms, 4253ms total)
T2EC0 763:184 JLINK_WriteReg(R9, 0x24000B98)  returns 0x00 (0000ms, 4253ms total)
T2EC0 763:184 JLINK_WriteReg(R10, 0x00000000)  returns 0x00 (0000ms, 4253ms total)
T2EC0 763:184 JLINK_WriteReg(R11, 0x00000000)  returns 0x00 (0000ms, 4253ms total)
T2EC0 763:184 JLINK_WriteReg(R12, 0x00000000)  returns 0x00 (0000ms, 4253ms total)
T2EC0 763:184 JLINK_WriteReg(R13 (SP), 0x24008000)  returns 0x00 (0000ms, 4253ms total)
T2EC0 763:184 JLINK_WriteReg(R14, 0x24000001)  returns 0x00 (0000ms, 4253ms total)
T2EC0 763:184 JLINK_WriteReg(R15 (PC), 0x240000A6)  returns 0x00 (0000ms, 4253ms total)
T2EC0 763:184 JLINK_WriteReg(XPSR, 0x01000000)  returns 0x00 (0000ms, 4253ms total)
T2EC0 763:184 JLINK_WriteReg(MSP, 0x24008000)  returns 0x00 (0000ms, 4253ms total)
T2EC0 763:184 JLINK_WriteReg(PSP, 0x24008000)  returns 0x00 (0000ms, 4253ms total)
T2EC0 763:184 JLINK_WriteReg(CFBP, 0x00000000)  returns 0x00 (0000ms, 4253ms total)
T2EC0 763:184 JLINK_SetBPEx(Addr = 0x24000000, Type = 0xFFFFFFF2)  returns 0x00000006 (0000ms, 4253ms total)
T2EC0 763:184 JLINK_Go() -- CPU_WriteMem(4 bytes @ 0xE0002000) -- CPU_ReadMem(4 bytes @ 0xE0001000) (0002ms, 4255ms total)
T2EC0 763:186 JLINK_IsHalted()  returns TRUE (0001ms, 4256ms total)
T2EC0 763:187 JLINK_ReadReg(R15 (PC))  returns 0x24000000 (0000ms, 4255ms total)
T2EC0 763:187 JLINK_ClrBPEx(BPHandle = 0x00000006)  returns 0x00 (0000ms, 4255ms total)
T2EC0 763:187 JLINK_ReadReg(R0)  returns 0x00000001 (0000ms, 4255ms total)
T2EC0 763:187 JLINK_WriteReg(R0, 0x90002000)  returns 0x00 (0000ms, 4255ms total)
T2EC0 763:187 JLINK_WriteReg(R1, 0x00001000)  returns 0x00 (0000ms, 4255ms total)
T2EC0 763:187 JLINK_WriteReg(R2, 0x000000FF)  returns 0x00 (0000ms, 4255ms total)
T2EC0 763:187 JLINK_WriteReg(R3, 0x00000000)  returns 0x00 (0000ms, 4255ms total)
T2EC0 763:187 JLINK_WriteReg(R4, 0x00000000)  returns 0x00 (0000ms, 4255ms total)
T2EC0 763:187 JLINK_WriteReg(R5, 0x00000000)  returns 0x00 (0000ms, 4255ms total)
T2EC0 763:187 JLINK_WriteReg(R6, 0x00000000)  returns 0x00 (0000ms, 4255ms total)
T2EC0 763:187 JLINK_WriteReg(R7, 0x00000000)  returns 0x00 (0000ms, 4255ms total)
T2EC0 763:187 JLINK_WriteReg(R8, 0x00000000)  returns 0x00 (0000ms, 4255ms total)
T2EC0 763:187 JLINK_WriteReg(R9, 0x24000B98)  returns 0x00 (0000ms, 4255ms total)
T2EC0 763:187 JLINK_WriteReg(R10, 0x00000000)  returns 0x00 (0000ms, 4255ms total)
T2EC0 763:187 JLINK_WriteReg(R11, 0x00000000)  returns 0x00 (0000ms, 4255ms total)
T2EC0 763:187 JLINK_WriteReg(R12, 0x00000000)  returns 0x00 (0000ms, 4255ms total)
T2EC0 763:187 JLINK_WriteReg(R13 (SP), 0x24008000)  returns 0x00 (0000ms, 4255ms total)
T2EC0 763:187 JLINK_WriteReg(R14, 0x24000001)  returns 0x00 (0000ms, 4255ms total)
T2EC0 763:187 JLINK_WriteReg(R15 (PC), 0x24000094)  returns 0x00 (0000ms, 4255ms total)
T2EC0 763:187 JLINK_WriteReg(XPSR, 0x01000000)  returns 0x00 (0000ms, 4255ms total)
T2EC0 763:187 JLINK_WriteReg(MSP, 0x24008000)  returns 0x00 (0000ms, 4255ms total)
T2EC0 763:187 JLINK_WriteReg(PSP, 0x24008000)  returns 0x00 (0000ms, 4255ms total)
T2EC0 763:187 JLINK_WriteReg(CFBP, 0x00000000)  returns 0x00 (0000ms, 4255ms total)
T2EC0 763:187 JLINK_SetBPEx(Addr = 0x24000000, Type = 0xFFFFFFF2)  returns 0x00000007 (0000ms, 4255ms total)
T2EC0 763:187 JLINK_Go() -- CPU_WriteMem(4 bytes @ 0xE0002000) -- CPU_ReadMem(4 bytes @ 0xE0001000) (0002ms, 4257ms total)
T2EC0 763:189 JLINK_IsHalted()  returns FALSE (0000ms, 4257ms total)
T2EC0 763:199 JLINK_IsHalted()  returns FALSE (0000ms, 4257ms total)
T2EC0 763:204 JLINK_IsHalted()  returns FALSE (0000ms, 4257ms total)
T2EC0 763:206 JLINK_IsHalted()  returns FALSE (0000ms, 4257ms total)
T2EC0 763:210 JLINK_IsHalted()  returns FALSE (0000ms, 4257ms total)
T2EC0 763:212 JLINK_IsHalted()  returns FALSE (0000ms, 4257ms total)
T2EC0 763:214 JLINK_IsHalted()  returns FALSE (0000ms, 4257ms total)
T2EC0 763:216 JLINK_IsHalted()  returns FALSE (0000ms, 4257ms total)
T2EC0 763:218 JLINK_IsHalted()  returns FALSE (0001ms, 4258ms total)
T2EC0 763:220 JLINK_IsHalted()  returns FALSE (0000ms, 4257ms total)
T2EC0 763:221 JLINK_IsHalted()  returns FALSE (0000ms, 4257ms total)
T2EC0 763:223 JLINK_IsHalted()  returns FALSE (0000ms, 4257ms total)
T2EC0 763:225 JLINK_IsHalted()  returns FALSE (0000ms, 4257ms total)
T2EC0 763:227 JLINK_IsHalted()  returns FALSE (0000ms, 4257ms total)
T2EC0 763:229 JLINK_IsHalted()  returns FALSE (0000ms, 4257ms total)
T2EC0 763:230 JLINK_IsHalted()  returns FALSE (0001ms, 4258ms total)
T2EC0 763:232 JLINK_IsHalted()  returns FALSE (0000ms, 4257ms total)
T2EC0 763:234 JLINK_IsHalted()  returns FALSE (0000ms, 4257ms total)
T2EC0 763:236 JLINK_IsHalted()  returns FALSE (0000ms, 4257ms total)
T2EC0 763:238 JLINK_IsHalted()  returns FALSE (0000ms, 4257ms total)
T2EC0 763:240 JLINK_IsHalted()  returns FALSE (0001ms, 4258ms total)
T2EC0 763:242 JLINK_IsHalted()  returns FALSE (0000ms, 4257ms total)
T2EC0 763:244 JLINK_IsHalted()  returns FALSE (0000ms, 4257ms total)
T2EC0 763:253 JLINK_IsHalted()  returns FALSE (0000ms, 4257ms total)
T2EC0 763:255 JLINK_IsHalted()  returns FALSE (0000ms, 4257ms total)
T2EC0 763:257 JLINK_IsHalted()  returns TRUE (0002ms, 4259ms total)
T2EC0 763:259 JLINK_ReadReg(R15 (PC))  returns 0x24000000 (0000ms, 4257ms total)
T2EC0 763:259 JLINK_ClrBPEx(BPHandle = 0x00000007)  returns 0x00 (0000ms, 4257ms total)
T2EC0 763:259 JLINK_ReadReg(R0)  returns 0x00000000 (0000ms, 4257ms total)
T2EC0 763:263 JLINK_WriteReg(R0, 0x90003000)  returns 0x00 (0000ms, 4257ms total)
T2EC0 763:263 JLINK_WriteReg(R1, 0x00001000)  returns 0x00 (0000ms, 4257ms total)
T2EC0 763:263 JLINK_WriteReg(R2, 0x000000FF)  returns 0x00 (0000ms, 4257ms total)
T2EC0 763:263 JLINK_WriteReg(R3, 0x00000000)  returns 0x00 (0000ms, 4257ms total)
T2EC0 763:263 JLINK_WriteReg(R4, 0x00000000)  returns 0x00 (0000ms, 4257ms total)
T2EC0 763:263 JLINK_WriteReg(R5, 0x00000000)  returns 0x00 (0000ms, 4257ms total)
T2EC0 763:263 JLINK_WriteReg(R6, 0x00000000)  returns 0x00 (0000ms, 4257ms total)
T2EC0 763:263 JLINK_WriteReg(R7, 0x00000000)  returns 0x00 (0000ms, 4257ms total)
T2EC0 763:263 JLINK_WriteReg(R8, 0x00000000)  returns 0x00 (0000ms, 4257ms total)
T2EC0 763:263 JLINK_WriteReg(R9, 0x24000B98)  returns 0x00 (0000ms, 4257ms total)
T2EC0 763:263 JLINK_WriteReg(R10, 0x00000000)  returns 0x00 (0000ms, 4257ms total)
T2EC0 763:263 JLINK_WriteReg(R11, 0x00000000)  returns 0x00 (0000ms, 4257ms total)
T2EC0 763:263 JLINK_WriteReg(R12, 0x00000000)  returns 0x00 (0000ms, 4257ms total)
T2EC0 763:263 JLINK_WriteReg(R13 (SP), 0x24008000)  returns 0x00 (0000ms, 4257ms total)
T2EC0 763:263 JLINK_WriteReg(R14, 0x24000001)  returns 0x00 (0000ms, 4257ms total)
T2EC0 763:263 JLINK_WriteReg(R15 (PC), 0x240000A6)  returns 0x00 (0000ms, 4257ms total)
T2EC0 763:263 JLINK_WriteReg(XPSR, 0x01000000)  returns 0x00 (0000ms, 4257ms total)
T2EC0 763:263 JLINK_WriteReg(MSP, 0x24008000)  returns 0x00 (0000ms, 4257ms total)
T2EC0 763:263 JLINK_WriteReg(PSP, 0x24008000)  returns 0x00 (0000ms, 4257ms total)
T2EC0 763:263 JLINK_WriteReg(CFBP, 0x00000000)  returns 0x00 (0000ms, 4257ms total)
T2EC0 763:263 JLINK_SetBPEx(Addr = 0x24000000, Type = 0xFFFFFFF2)  returns 0x00000008 (0000ms, 4257ms total)
T2EC0 763:263 JLINK_Go() -- CPU_WriteMem(4 bytes @ 0xE0002000) -- CPU_ReadMem(4 bytes @ 0xE0001000) (0002ms, 4259ms total)
T2EC0 763:265 JLINK_IsHalted()  returns TRUE (0002ms, 4261ms total)
T2EC0 763:267 JLINK_ReadReg(R15 (PC))  returns 0x24000000 (0000ms, 4259ms total)
T2EC0 763:267 JLINK_ClrBPEx(BPHandle = 0x00000008)  returns 0x00 (0000ms, 4259ms total)
T2EC0 763:267 JLINK_ReadReg(R0)  returns 0x00000001 (0000ms, 4259ms total)
T2EC0 763:267 JLINK_WriteReg(R0, 0x90003000)  returns 0x00 (0000ms, 4259ms total)
T2EC0 763:267 JLINK_WriteReg(R1, 0x00001000)  returns 0x00 (0000ms, 4259ms total)
T2EC0 763:267 JLINK_WriteReg(R2, 0x000000FF)  returns 0x00 (0000ms, 4259ms total)
T2EC0 763:267 JLINK_WriteReg(R3, 0x00000000)  returns 0x00 (0000ms, 4259ms total)
T2EC0 763:267 JLINK_WriteReg(R4, 0x00000000)  returns 0x00 (0000ms, 4259ms total)
T2EC0 763:267 JLINK_WriteReg(R5, 0x00000000)  returns 0x00 (0000ms, 4259ms total)
T2EC0 763:267 JLINK_WriteReg(R6, 0x00000000)  returns 0x00 (0000ms, 4259ms total)
T2EC0 763:267 JLINK_WriteReg(R7, 0x00000000)  returns 0x00 (0000ms, 4259ms total)
T2EC0 763:267 JLINK_WriteReg(R8, 0x00000000)  returns 0x00 (0000ms, 4259ms total)
T2EC0 763:267 JLINK_WriteReg(R9, 0x24000B98)  returns 0x00 (0000ms, 4259ms total)
T2EC0 763:267 JLINK_WriteReg(R10, 0x00000000)  returns 0x00 (0000ms, 4259ms total)
T2EC0 763:267 JLINK_WriteReg(R11, 0x00000000)  returns 0x00 (0000ms, 4259ms total)
T2EC0 763:267 JLINK_WriteReg(R12, 0x00000000)  returns 0x00 (0000ms, 4259ms total)
T2EC0 763:267 JLINK_WriteReg(R13 (SP), 0x24008000)  returns 0x00 (0000ms, 4259ms total)
T2EC0 763:267 JLINK_WriteReg(R14, 0x24000001)  returns 0x00 (0000ms, 4259ms total)
T2EC0 763:267 JLINK_WriteReg(R15 (PC), 0x24000094)  returns 0x00 (0000ms, 4259ms total)
T2EC0 763:267 JLINK_WriteReg(XPSR, 0x01000000)  returns 0x00 (0000ms, 4259ms total)
T2EC0 763:267 JLINK_WriteReg(MSP, 0x24008000)  returns 0x00 (0000ms, 4259ms total)
T2EC0 763:267 JLINK_WriteReg(PSP, 0x24008000)  returns 0x00 (0000ms, 4259ms total)
T2EC0 763:267 JLINK_WriteReg(CFBP, 0x00000000)  returns 0x00 (0000ms, 4259ms total)
T2EC0 763:267 JLINK_SetBPEx(Addr = 0x24000000, Type = 0xFFFFFFF2)  returns 0x00000009 (0000ms, 4259ms total)
T2EC0 763:267 JLINK_Go() -- CPU_WriteMem(4 bytes @ 0xE0002000) -- CPU_ReadMem(4 bytes @ 0xE0001000) (0002ms, 4261ms total)
T2EC0 763:269 JLINK_IsHalted()  returns FALSE (0000ms, 4261ms total)
T2EC0 763:271 JLINK_IsHalted()  returns FALSE (0000ms, 4261ms total)
T2EC0 763:273 JLINK_IsHalted()  returns FALSE (0000ms, 4261ms total)
T2EC0 763:275 JLINK_IsHalted()  returns FALSE (0000ms, 4261ms total)
T2EC0 763:277 JLINK_IsHalted()  returns FALSE (0000ms, 4261ms total)
T2EC0 763:279 JLINK_IsHalted()  returns FALSE (0000ms, 4261ms total)
T2EC0 763:281 JLINK_IsHalted()  returns FALSE (0000ms, 4261ms total)
T2EC0 763:283 JLINK_IsHalted()  returns FALSE (0000ms, 4261ms total)
T2EC0 763:285 JLINK_IsHalted()  returns FALSE (0000ms, 4261ms total)
T2EC0 763:287 JLINK_IsHalted()  returns FALSE (0000ms, 4261ms total)
T2EC0 763:289 JLINK_IsHalted()  returns FALSE (0000ms, 4261ms total)
T2EC0 763:291 JLINK_IsHalted()  returns FALSE (0000ms, 4261ms total)
T2EC0 763:293 JLINK_IsHalted()  returns FALSE (0000ms, 4261ms total)
T2EC0 763:295 JLINK_IsHalted()  returns FALSE (0000ms, 4261ms total)
T2EC0 763:297 JLINK_IsHalted()  returns FALSE (0000ms, 4261ms total)
T2EC0 763:298 JLINK_IsHalted()  returns FALSE (0000ms, 4261ms total)
T2EC0 763:300 JLINK_IsHalted()  returns FALSE (0000ms, 4261ms total)
T2EC0 763:302 JLINK_IsHalted()  returns FALSE (0000ms, 4261ms total)
T2EC0 763:304 JLINK_IsHalted()  returns FALSE (0000ms, 4261ms total)
T2EC0 763:306 JLINK_IsHalted()  returns FALSE (0000ms, 4261ms total)
T2EC0 763:312 JLINK_IsHalted()  returns FALSE (0000ms, 4261ms total)
T2EC0 763:314 JLINK_IsHalted()  returns FALSE (0000ms, 4261ms total)
T2EC0 763:316 JLINK_IsHalted()  returns FALSE (0000ms, 4261ms total)
T2EC0 763:318 JLINK_IsHalted()  returns FALSE (0000ms, 4261ms total)
T2EC0 763:320 JLINK_IsHalted()  returns FALSE (0000ms, 4261ms total)
T2EC0 763:322 JLINK_IsHalted()  returns FALSE (0000ms, 4261ms total)
T2EC0 763:330 JLINK_IsHalted()  returns FALSE (0000ms, 4261ms total)
T2EC0 763:332 JLINK_IsHalted()  returns FALSE (0000ms, 4261ms total)
T2EC0 763:334 JLINK_IsHalted()  returns FALSE (0000ms, 4261ms total)
T2EC0 763:336 JLINK_IsHalted()  returns TRUE (0002ms, 4263ms total)
T2EC0 763:338 JLINK_ReadReg(R15 (PC))  returns 0x24000000 (0000ms, 4261ms total)
T2EC0 763:338 JLINK_ClrBPEx(BPHandle = 0x00000009)  returns 0x00 (0000ms, 4261ms total)
T2EC0 763:338 JLINK_ReadReg(R0)  returns 0x00000000 (0000ms, 4261ms total)
T2EC0 763:338 JLINK_WriteReg(R0, 0x90004000)  returns 0x00 (0000ms, 4261ms total)
T2EC0 763:338 JLINK_WriteReg(R1, 0x00001000)  returns 0x00 (0000ms, 4261ms total)
T2EC0 763:338 JLINK_WriteReg(R2, 0x000000FF)  returns 0x00 (0000ms, 4261ms total)
T2EC0 763:338 JLINK_WriteReg(R3, 0x00000000)  returns 0x00 (0000ms, 4261ms total)
T2EC0 763:338 JLINK_WriteReg(R4, 0x00000000)  returns 0x00 (0000ms, 4261ms total)
T2EC0 763:338 JLINK_WriteReg(R5, 0x00000000)  returns 0x00 (0000ms, 4261ms total)
T2EC0 763:338 JLINK_WriteReg(R6, 0x00000000)  returns 0x00 (0000ms, 4261ms total)
T2EC0 763:338 JLINK_WriteReg(R7, 0x00000000)  returns 0x00 (0000ms, 4261ms total)
T2EC0 763:338 JLINK_WriteReg(R8, 0x00000000)  returns 0x00 (0000ms, 4261ms total)
T2EC0 763:338 JLINK_WriteReg(R9, 0x24000B98)  returns 0x00 (0000ms, 4261ms total)
T2EC0 763:338 JLINK_WriteReg(R10, 0x00000000)  returns 0x00 (0000ms, 4261ms total)
T2EC0 763:338 JLINK_WriteReg(R11, 0x00000000)  returns 0x00 (0000ms, 4261ms total)
T2EC0 763:338 JLINK_WriteReg(R12, 0x00000000)  returns 0x00 (0000ms, 4261ms total)
T2EC0 763:338 JLINK_WriteReg(R13 (SP), 0x24008000)  returns 0x00 (0000ms, 4261ms total)
T2EC0 763:338 JLINK_WriteReg(R14, 0x24000001)  returns 0x00 (0000ms, 4261ms total)
T2EC0 763:338 JLINK_WriteReg(R15 (PC), 0x240000A6)  returns 0x00 (0000ms, 4261ms total)
T2EC0 763:338 JLINK_WriteReg(XPSR, 0x01000000)  returns 0x00 (0000ms, 4261ms total)
T2EC0 763:338 JLINK_WriteReg(MSP, 0x24008000)  returns 0x00 (0000ms, 4261ms total)
T2EC0 763:338 JLINK_WriteReg(PSP, 0x24008000)  returns 0x00 (0000ms, 4261ms total)
T2EC0 763:338 JLINK_WriteReg(CFBP, 0x00000000)  returns 0x00 (0000ms, 4261ms total)
T2EC0 763:338 JLINK_SetBPEx(Addr = 0x24000000, Type = 0xFFFFFFF2)  returns 0x0000000A (0000ms, 4261ms total)
T2EC0 763:338 JLINK_Go() -- CPU_WriteMem(4 bytes @ 0xE0002000) -- CPU_ReadMem(4 bytes @ 0xE0001000) (0003ms, 4264ms total)
T2EC0 763:341 JLINK_IsHalted()  returns TRUE (0002ms, 4266ms total)
T2EC0 763:343 JLINK_ReadReg(R15 (PC))  returns 0x24000000 (0000ms, 4264ms total)
T2EC0 763:343 JLINK_ClrBPEx(BPHandle = 0x0000000A)  returns 0x00 (0000ms, 4264ms total)
T2EC0 763:343 JLINK_ReadReg(R0)  returns 0x00000001 (0000ms, 4264ms total)
T2EC0 763:343 JLINK_WriteReg(R0, 0x90004000)  returns 0x00 (0000ms, 4264ms total)
T2EC0 763:343 JLINK_WriteReg(R1, 0x00001000)  returns 0x00 (0000ms, 4264ms total)
T2EC0 763:343 JLINK_WriteReg(R2, 0x000000FF)  returns 0x00 (0000ms, 4264ms total)
T2EC0 763:343 JLINK_WriteReg(R3, 0x00000000)  returns 0x00 (0000ms, 4264ms total)
T2EC0 763:343 JLINK_WriteReg(R4, 0x00000000)  returns 0x00 (0000ms, 4264ms total)
T2EC0 763:343 JLINK_WriteReg(R5, 0x00000000)  returns 0x00 (0000ms, 4264ms total)
T2EC0 763:343 JLINK_WriteReg(R6, 0x00000000)  returns 0x00 (0000ms, 4264ms total)
T2EC0 763:343 JLINK_WriteReg(R7, 0x00000000)  returns 0x00 (0000ms, 4264ms total)
T2EC0 763:343 JLINK_WriteReg(R8, 0x00000000)  returns 0x00 (0000ms, 4264ms total)
T2EC0 763:343 JLINK_WriteReg(R9, 0x24000B98)  returns 0x00 (0000ms, 4264ms total)
T2EC0 763:343 JLINK_WriteReg(R10, 0x00000000)  returns 0x00 (0000ms, 4264ms total)
T2EC0 763:343 JLINK_WriteReg(R11, 0x00000000)  returns 0x00 (0000ms, 4264ms total)
T2EC0 763:343 JLINK_WriteReg(R12, 0x00000000)  returns 0x00 (0000ms, 4264ms total)
T2EC0 763:343 JLINK_WriteReg(R13 (SP), 0x24008000)  returns 0x00 (0000ms, 4264ms total)
T2EC0 763:343 JLINK_WriteReg(R14, 0x24000001)  returns 0x00 (0000ms, 4264ms total)
T2EC0 763:343 JLINK_WriteReg(R15 (PC), 0x24000094)  returns 0x00 (0000ms, 4264ms total)
T2EC0 763:343 JLINK_WriteReg(XPSR, 0x01000000)  returns 0x00 (0000ms, 4264ms total)
T2EC0 763:343 JLINK_WriteReg(MSP, 0x24008000)  returns 0x00 (0000ms, 4264ms total)
T2EC0 763:343 JLINK_WriteReg(PSP, 0x24008000)  returns 0x00 (0000ms, 4264ms total)
T2EC0 763:343 JLINK_WriteReg(CFBP, 0x00000000)  returns 0x00 (0000ms, 4264ms total)
T2EC0 763:343 JLINK_SetBPEx(Addr = 0x24000000, Type = 0xFFFFFFF2)  returns 0x0000000B (0000ms, 4264ms total)
T2EC0 763:343 JLINK_Go() -- CPU_WriteMem(4 bytes @ 0xE0002000) -- CPU_ReadMem(4 bytes @ 0xE0001000) (0002ms, 4266ms total)
T2EC0 763:345 JLINK_IsHalted()  returns FALSE (0000ms, 4266ms total)
T2EC0 763:349 JLINK_IsHalted()  returns FALSE (0000ms, 4266ms total)
T2EC0 763:351 JLINK_IsHalted()  returns FALSE (0000ms, 4266ms total)
T2EC0 763:353 JLINK_IsHalted()  returns FALSE (0000ms, 4266ms total)
T2EC0 763:362 JLINK_IsHalted()  returns FALSE (0000ms, 4266ms total)
T2EC0 763:364 JLINK_IsHalted()  returns FALSE (0000ms, 4266ms total)
T2EC0 763:366 JLINK_IsHalted()  returns FALSE (0000ms, 4266ms total)
T2EC0 763:368 JLINK_IsHalted()  returns FALSE (0000ms, 4266ms total)
T2EC0 763:375 JLINK_IsHalted()  returns FALSE (0001ms, 4267ms total)
T2EC0 763:377 JLINK_IsHalted()  returns FALSE (0000ms, 4266ms total)
T2EC0 763:378 JLINK_IsHalted()  returns FALSE (0000ms, 4266ms total)
T2EC0 763:380 JLINK_IsHalted()  returns FALSE (0000ms, 4266ms total)
T2EC0 763:382 JLINK_IsHalted()  returns FALSE (0000ms, 4266ms total)
T2EC0 763:384 JLINK_IsHalted()  returns FALSE (0000ms, 4266ms total)
T2EC0 763:395 JLINK_IsHalted()  returns FALSE (0000ms, 4266ms total)
T2EC0 763:397 JLINK_IsHalted()  returns FALSE (0000ms, 4266ms total)
T2EC0 763:398 JLINK_IsHalted()  returns FALSE (0000ms, 4266ms total)
T2EC0 763:400 JLINK_IsHalted()  returns FALSE (0000ms, 4266ms total)
T2EC0 763:404 JLINK_IsHalted()  returns FALSE (0000ms, 4266ms total)
T2EC0 763:406 JLINK_IsHalted()  returns FALSE (0000ms, 4266ms total)
T2EC0 763:408 JLINK_IsHalted()  returns FALSE (0000ms, 4266ms total)
T2EC0 763:409 JLINK_IsHalted()  returns FALSE (0000ms, 4266ms total)
T2EC0 763:411 JLINK_IsHalted()  returns FALSE (0000ms, 4266ms total)
T2EC0 763:413 JLINK_IsHalted()  returns FALSE (0000ms, 4266ms total)
T2EC0 763:415 JLINK_IsHalted()  returns FALSE (0000ms, 4266ms total)
T2EC0 763:420 JLINK_IsHalted()  returns FALSE (0000ms, 4266ms total)
T2EC0 763:422 JLINK_IsHalted()  returns TRUE (0002ms, 4268ms total)
T2EC0 763:424 JLINK_ReadReg(R15 (PC))  returns 0x24000000 (0000ms, 4266ms total)
T2EC0 763:424 JLINK_ClrBPEx(BPHandle = 0x0000000B)  returns 0x00 (0000ms, 4266ms total)
T2EC0 763:424 JLINK_ReadReg(R0)  returns 0x00000000 (0000ms, 4266ms total)
T2EC0 763:424 JLINK_WriteReg(R0, 0x90005000)  returns 0x00 (0000ms, 4266ms total)
T2EC0 763:424 JLINK_WriteReg(R1, 0x00001000)  returns 0x00 (0000ms, 4266ms total)
T2EC0 763:424 JLINK_WriteReg(R2, 0x000000FF)  returns 0x00 (0000ms, 4266ms total)
T2EC0 763:424 JLINK_WriteReg(R3, 0x00000000)  returns 0x00 (0000ms, 4266ms total)
T2EC0 763:424 JLINK_WriteReg(R4, 0x00000000)  returns 0x00 (0000ms, 4266ms total)
T2EC0 763:424 JLINK_WriteReg(R5, 0x00000000)  returns 0x00 (0000ms, 4266ms total)
T2EC0 763:424 JLINK_WriteReg(R6, 0x00000000)  returns 0x00 (0000ms, 4266ms total)
T2EC0 763:424 JLINK_WriteReg(R7, 0x00000000)  returns 0x00 (0000ms, 4266ms total)
T2EC0 763:424 JLINK_WriteReg(R8, 0x00000000)  returns 0x00 (0000ms, 4266ms total)
T2EC0 763:424 JLINK_WriteReg(R9, 0x24000B98)  returns 0x00 (0000ms, 4266ms total)
T2EC0 763:424 JLINK_WriteReg(R10, 0x00000000)  returns 0x00 (0000ms, 4266ms total)
T2EC0 763:424 JLINK_WriteReg(R11, 0x00000000)  returns 0x00 (0000ms, 4266ms total)
T2EC0 763:424 JLINK_WriteReg(R12, 0x00000000)  returns 0x00 (0000ms, 4266ms total)
T2EC0 763:424 JLINK_WriteReg(R13 (SP), 0x24008000)  returns 0x00 (0000ms, 4266ms total)
T2EC0 763:424 JLINK_WriteReg(R14, 0x24000001)  returns 0x00 (0000ms, 4266ms total)
T2EC0 763:424 JLINK_WriteReg(R15 (PC), 0x240000A6)  returns 0x00 (0000ms, 4266ms total)
T2EC0 763:424 JLINK_WriteReg(XPSR, 0x01000000)  returns 0x00 (0000ms, 4266ms total)
T2EC0 763:424 JLINK_WriteReg(MSP, 0x24008000)  returns 0x00 (0000ms, 4266ms total)
T2EC0 763:424 JLINK_WriteReg(PSP, 0x24008000)  returns 0x00 (0000ms, 4266ms total)
T2EC0 763:424 JLINK_WriteReg(CFBP, 0x00000000)  returns 0x00 (0000ms, 4266ms total)
T2EC0 763:424 JLINK_SetBPEx(Addr = 0x24000000, Type = 0xFFFFFFF2)  returns 0x0000000C (0000ms, 4266ms total)
T2EC0 763:424 JLINK_Go() -- CPU_WriteMem(4 bytes @ 0xE0002000) -- CPU_ReadMem(4 bytes @ 0xE0001000) (0004ms, 4270ms total)
T2EC0 763:428 JLINK_IsHalted()  returns TRUE (0001ms, 4271ms total)
T2EC0 763:429 JLINK_ReadReg(R15 (PC))  returns 0x24000000 (0000ms, 4270ms total)
T2EC0 763:429 JLINK_ClrBPEx(BPHandle = 0x0000000C)  returns 0x00 (0000ms, 4270ms total)
T2EC0 763:429 JLINK_ReadReg(R0)  returns 0x00000001 (0000ms, 4270ms total)
T2EC0 763:429 JLINK_WriteReg(R0, 0x90005000)  returns 0x00 (0000ms, 4270ms total)
T2EC0 763:429 JLINK_WriteReg(R1, 0x00001000)  returns 0x00 (0000ms, 4270ms total)
T2EC0 763:429 JLINK_WriteReg(R2, 0x000000FF)  returns 0x00 (0000ms, 4270ms total)
T2EC0 763:429 JLINK_WriteReg(R3, 0x00000000)  returns 0x00 (0000ms, 4270ms total)
T2EC0 763:429 JLINK_WriteReg(R4, 0x00000000)  returns 0x00 (0000ms, 4270ms total)
T2EC0 763:429 JLINK_WriteReg(R5, 0x00000000)  returns 0x00 (0000ms, 4270ms total)
T2EC0 763:429 JLINK_WriteReg(R6, 0x00000000)  returns 0x00 (0000ms, 4270ms total)
T2EC0 763:429 JLINK_WriteReg(R7, 0x00000000)  returns 0x00 (0000ms, 4270ms total)
T2EC0 763:429 JLINK_WriteReg(R8, 0x00000000)  returns 0x00 (0000ms, 4270ms total)
T2EC0 763:429 JLINK_WriteReg(R9, 0x24000B98)  returns 0x00 (0000ms, 4270ms total)
T2EC0 763:429 JLINK_WriteReg(R10, 0x00000000)  returns 0x00 (0000ms, 4270ms total)
T2EC0 763:429 JLINK_WriteReg(R11, 0x00000000)  returns 0x00 (0000ms, 4270ms total)
T2EC0 763:429 JLINK_WriteReg(R12, 0x00000000)  returns 0x00 (0000ms, 4270ms total)
T2EC0 763:429 JLINK_WriteReg(R13 (SP), 0x24008000)  returns 0x00 (0000ms, 4270ms total)
T2EC0 763:429 JLINK_WriteReg(R14, 0x24000001)  returns 0x00 (0001ms, 4271ms total)
T2EC0 763:430 JLINK_WriteReg(R15 (PC), 0x24000094)  returns 0x00 (0000ms, 4271ms total)
T2EC0 763:430 JLINK_WriteReg(XPSR, 0x01000000)  returns 0x00 (0000ms, 4271ms total)
T2EC0 763:430 JLINK_WriteReg(MSP, 0x24008000)  returns 0x00 (0000ms, 4271ms total)
T2EC0 763:430 JLINK_WriteReg(PSP, 0x24008000)  returns 0x00 (0000ms, 4271ms total)
T2EC0 763:430 JLINK_WriteReg(CFBP, 0x00000000)  returns 0x00 (0000ms, 4271ms total)
T2EC0 763:430 JLINK_SetBPEx(Addr = 0x24000000, Type = 0xFFFFFFF2)  returns 0x0000000D (0000ms, 4271ms total)
T2EC0 763:430 JLINK_Go() -- CPU_WriteMem(4 bytes @ 0xE0002000) -- CPU_ReadMem(4 bytes @ 0xE0001000) (0002ms, 4273ms total)
T2EC0 763:432 JLINK_IsHalted()  returns FALSE (0000ms, 4273ms total)
T2EC0 763:438 JLINK_IsHalted()  returns FALSE (0000ms, 4273ms total)
T2EC0 763:440 JLINK_IsHalted()  returns FALSE (0000ms, 4273ms total)
T2EC0 763:441 JLINK_IsHalted()  returns FALSE (0000ms, 4273ms total)
T2EC0 763:443 JLINK_IsHalted()  returns FALSE (0000ms, 4273ms total)
T2EC0 763:445 JLINK_IsHalted()  returns FALSE (0000ms, 4273ms total)
T2EC0 763:447 JLINK_IsHalted()  returns FALSE (0001ms, 4274ms total)
T2EC0 763:449 JLINK_IsHalted()  returns FALSE (0000ms, 4273ms total)
T2EC0 763:451 JLINK_IsHalted()  returns FALSE (0000ms, 4273ms total)
T2EC0 763:453 JLINK_IsHalted()  returns FALSE (0000ms, 4273ms total)
T2EC0 763:455 JLINK_IsHalted()  returns FALSE (0000ms, 4273ms total)
T2EC0 763:457 JLINK_IsHalted()  returns FALSE (0001ms, 4274ms total)
T2EC0 763:459 JLINK_IsHalted()  returns FALSE (0000ms, 4273ms total)
T2EC0 763:461 JLINK_IsHalted()  returns FALSE (0000ms, 4273ms total)
T2EC0 763:463 JLINK_IsHalted()  returns FALSE (0000ms, 4273ms total)
T2EC0 763:467 JLINK_IsHalted()  returns FALSE (0000ms, 4273ms total)
T2EC0 763:469 JLINK_IsHalted()  returns FALSE (0001ms, 4274ms total)
T2EC0 763:471 JLINK_IsHalted()  returns FALSE (0000ms, 4273ms total)
